Sample in Buffer,Sample in Window,TRIGGER,aquila_soc_i/aquila_0/inst/aquila_core/Memory_Management/read_len_1[0:0],aquila_soc_i/aquila_0/inst/aquila_core/Memory_Management/read_len_2[2:1],aquila_soc_i/aquila_0/inst/aquila_core/Memory_Management/read_len[3:3],aquila_soc_i/aquila_0/inst/aquila_core/D_Cache/S_nxt[3:0],aquila_soc_i/aquila_0/inst/aquila_core/D_Cache/S[3:0],aquila_soc_i/aquila_0/inst/aquila_core/Memory_Management/allocator/FREE_ST[3:0],aquila_soc_i/aquila_0/inst/aquila_core/Memory_Management/dmm_unit_addr[31:0],aquila_soc_i/aquila_0/inst/aquila_core/Memory_Management/dmm_unit_datain[255:0],aquila_soc_i/aquila_0/inst/aquila_core/Memory_Management/dmm_unit_dataout[255:0],aquila_soc_i/aquila_0/inst/aquila_core/Memory_Management/allocator/MAIN_ST[3:0],aquila_soc_i/aquila_0/inst/aquila_core/Memory_Management/dmm_unit_size[7:0],aquila_soc_i/aquila_0/inst/aquila_core/dcache_is_flushing,aquila_soc_i/aquila_0/inst/aquila_core/Memory_Management/dmm_unit_done,aquila_soc_i/aquila_0/inst/aquila_core/Memory_Management/dmm_unit_rw,aquila_soc_i/aquila_0/inst/aquila_core/Memory_Management/dmm_unit_strobe,aquila_soc_i/aquila_0/inst/aquila_core/Memory_Management/free_request,aquila_soc_i/aquila_0/inst/aquila_core/Memory_Management/free_request_o,u_ila_0_stall_i
0,0,0,0,0,0,0,0,0,00000000,0000000000000000000000000000000000000000000000000000000000000000,0000000000000000000000000000000000000000000000000000000000000000,"IDLE",08,0,0,0,0,0,0,1
1,1,0,0,0,0,0,0,0,00000000,0000000000000000000000000000000000000000000000000000000000000000,0000000000000000000000000000000000000000000000000000000000000000,"IDLE",08,0,0,0,0,0,0,0
2,2,0,0,0,0,1,0,0,00000000,0000000000000000000000000000000000000000000000000000000000000000,0000000000000000000000000000000000000000000000000000000000000000,"IDLE",08,0,0,0,0,0,0,1
3,3,0,0,0,0,0,1,0,00000000,0000000000000000000000000000000000000000000000000000000000000000,0000000000000000000000000000000000000000000000000000000000000000,"IDLE",08,0,0,0,0,0,0,1
4,4,0,0,0,0,0,0,0,00000000,0000000000000000000000000000000000000000000000000000000000000000,0000000000000000000000000000000000000000000000000000000000000000,"IDLE",08,0,0,0,0,0,0,0
5,5,0,0,0,0,0,0,0,00000000,0000000000000000000000000000000000000000000000000000000000000000,0000000000000000000000000000000000000000000000000000000000000000,"IDLE",08,0,0,0,0,0,0,0
6,6,0,0,0,0,0,0,0,00000000,0000000000000000000000000000000000000000000000000000000000000000,0000000000000000000000000000000000000000000000000000000000000000,"IDLE",08,0,0,0,0,0,0,1
7,7,0,0,0,0,0,0,0,00000000,0000000000000000000000000000000000000000000000000000000000000000,0000000000000000000000000000000000000000000000000000000000000000,"IDLE",08,0,0,0,0,0,0,0
8,8,0,0,0,0,0,0,0,00000000,0000000000000000000000000000000000000000000000000000000000000000,0000000000000000000000000000000000000000000000000000000000000000,"IDLE",08,0,0,0,0,0,0,0
9,9,0,0,0,0,0,0,0,00000000,0000000000000000000000000000000000000000000000000000000000000000,0000000000000000000000000000000000000000000000000000000000000000,"IDLE",08,0,0,0,0,0,0,1
10,10,0,0,0,0,0,0,0,00000000,0000000000000000000000000000000000000000000000000000000000000000,0000000000000000000000000000000000000000000000000000000000000000,"IDLE",08,0,0,0,0,0,0,0
11,11,0,0,0,0,0,0,0,00000000,0000000000000000000000000000000000000000000000000000000000000000,0000000000000000000000000000000000000000000000000000000000000000,"IDLE",08,0,0,0,0,0,0,0
12,12,0,0,0,0,0,0,0,00000000,0000000000000000000000000000000000000000000000000000000000000000,0000000000000000000000000000000000000000000000000000000000000000,"IDLE",08,0,0,0,0,0,0,0
13,13,0,0,0,0,1,0,0,00000000,0000000000000000000000000000000000000000000000000000000000000000,0000000000000000000000000000000000000000000000000000000000000000,"IDLE",08,0,0,0,0,0,0,1
14,14,0,0,0,0,0,1,0,00000000,0000000000000000000000000000000000000000000000000000000000000000,0000000000000000000000000000000000000000000000000000000000000000,"IDLE",08,0,0,0,0,0,0,1
15,15,0,0,0,0,0,0,0,00000000,0000000000000000000000000000000000000000000000000000000000000000,0000000000000000000000000000000000000000000000000000000000000000,"IDLE",08,0,0,0,0,0,0,0
16,16,0,0,0,0,0,0,0,00000000,0000000000000000000000000000000000000000000000000000000000000000,0000000000000000000000000000000000000000000000000000000000000000,"IDLE",08,0,0,0,0,0,0,0
17,17,0,0,0,0,0,0,0,00000000,0000000000000000000000000000000000000000000000000000000000000000,0000000000000000000000000000000000000000000000000000000000000000,"IDLE",08,0,0,0,0,0,0,1
18,18,0,0,0,0,0,0,0,00000000,0000000000000000000000000000000000000000000000000000000000000000,0000000000000000000000000000000000000000000000000000000000000000,"IDLE",08,0,0,0,0,0,0,0
19,19,0,0,0,0,0,0,0,00000000,0000000000000000000000000000000000000000000000000000000000000000,0000000000000000000000000000000000000000000000000000000000000000,"IDLE",08,0,0,0,0,0,0,0
20,20,0,0,0,0,0,0,0,00000000,0000000000000000000000000000000000000000000000000000000000000000,0000000000000000000000000000000000000000000000000000000000000000,"IDLE",08,0,0,0,0,0,0,0
21,21,0,0,0,0,0,0,0,00000000,0000000000000000000000000000000000000000000000000000000000000000,0000000000000000000000000000000000000000000000000000000000000000,"IDLE",08,0,0,0,0,0,0,1
22,22,0,0,0,0,0,0,0,00000000,0000000000000000000000000000000000000000000000000000000000000000,0000000000000000000000000000000000000000000000000000000000000000,"IDLE",08,0,0,0,0,0,0,0
23,23,0,0,0,0,0,0,0,00000000,0000000000000000000000000000000000000000000000000000000000000000,0000000000000000000000000000000000000000000000000000000000000000,"IDLE",08,0,0,0,0,0,0,0
24,24,0,0,0,0,0,0,0,00000000,0000000000000000000000000000000000000000000000000000000000000000,0000000000000000000000000000000000000000000000000000000000000000,"IDLE",08,0,0,0,0,0,0,0
25,25,0,0,0,0,0,0,0,00000000,0000000000000000000000000000000000000000000000000000000000000000,0000000000000000000000000000000000000000000000000000000000000000,"IDLE",08,0,0,0,0,0,0,1
26,26,0,0,0,0,0,0,0,00000000,0000000000000000000000000000000000000000000000000000000000000000,0000000000000000000000000000000000000000000000000000000000000000,"IDLE",08,0,0,0,0,0,0,0
27,27,0,0,0,0,1,0,0,00000000,0000000000000000000000000000000000000000000000000000000000000000,0000000000000000000000000000000000000000000000000000000000000000,"IDLE",08,0,0,0,0,0,0,1
28,28,0,0,0,0,0,1,0,00000000,0000000000000000000000000000000000000000000000000000000000000000,0000000000000000000000000000000000000000000000000000000000000000,"IDLE",08,0,0,0,0,0,0,1
29,29,0,0,0,0,0,0,0,00000000,0000000000000000000000000000000000000000000000000000000000000000,0000000000000000000000000000000000000000000000000000000000000000,"IDLE",08,0,0,0,0,0,0,0
30,30,0,0,0,0,0,0,0,00000000,0000000000000000000000000000000000000000000000000000000000000000,0000000000000000000000000000000000000000000000000000000000000000,"IDLE",08,0,0,0,0,0,0,0
31,31,0,0,0,0,1,0,0,00000000,0000000000000000000000000000000000000000000000000000000000000000,0000000000000000000000000000000000000000000000000000000000000000,"IDLE",08,0,0,0,0,0,0,1
32,32,0,0,0,0,0,1,0,00000000,0000000000000000000000000000000000000000000000000000000000000000,0000000000000000000000000000000000000000000000000000000000000000,"IDLE",08,0,0,0,0,0,0,1
33,33,0,0,0,0,0,0,0,00000000,0000000000000000000000000000000000000000000000000000000000000000,0000000000000000000000000000000000000000000000000000000000000000,"IDLE",08,0,0,0,0,0,0,0
34,34,0,0,0,0,0,0,0,00000000,0000000000000000000000000000000000000000000000000000000000000000,0000000000000000000000000000000000000000000000000000000000000000,"IDLE",08,0,0,0,0,0,0,0
35,35,0,0,0,0,1,0,0,00000000,0000000000000000000000000000000000000000000000000000000000000000,0000000000000000000000000000000000000000000000000000000000000000,"IDLE",08,0,0,0,0,0,0,1
36,36,0,0,0,0,0,1,0,00000000,0000000000000000000000000000000000000000000000000000000000000000,0000000000000000000000000000000000000000000000000000000000000000,"IDLE",08,0,0,0,0,0,0,1
37,37,0,0,0,0,0,0,0,00000000,0000000000000000000000000000000000000000000000000000000000000000,0000000000000000000000000000000000000000000000000000000000000000,"IDLE",08,0,0,0,0,0,0,0
38,38,0,0,0,0,1,0,0,00000000,0000000000000000000000000000000000000000000000000000000000000000,0000000000000000000000000000000000000000000000000000000000000000,"IDLE",08,0,0,0,0,0,0,1
39,39,0,0,0,0,0,1,0,00000000,0000000000000000000000000000000000000000000000000000000000000000,0000000000000000000000000000000000000000000000000000000000000000,"IDLE",08,0,0,0,0,0,0,1
40,40,0,0,0,0,0,0,0,00000000,0000000000000000000000000000000000000000000000000000000000000000,0000000000000000000000000000000000000000000000000000000000000000,"IDLE",08,0,0,0,0,0,0,0
41,41,0,0,0,0,0,0,0,00000000,0000000000000000000000000000000000000000000000000000000000000000,0000000000000000000000000000000000000000000000000000000000000000,"IDLE",08,0,0,0,0,0,0,0
42,42,0,0,0,0,0,0,0,00000000,0000000000000000000000000000000000000000000000000000000000000000,0000000000000000000000000000000000000000000000000000000000000000,"IDLE",08,0,0,0,0,0,0,0
43,43,0,0,0,0,0,0,0,00000000,0000000000000000000000000000000000000000000000000000000000000000,0000000000000000000000000000000000000000000000000000000000000000,"IDLE",08,0,0,0,0,0,0,1
44,44,0,0,0,0,0,0,0,00000000,0000000000000000000000000000000000000000000000000000000000000000,0000000000000000000000000000000000000000000000000000000000000000,"IDLE",08,0,0,0,0,0,0,0
45,45,0,0,0,0,0,0,0,00000000,0000000000000000000000000000000000000000000000000000000000000000,0000000000000000000000000000000000000000000000000000000000000000,"IDLE",08,0,0,0,0,0,0,0
46,46,0,0,0,0,0,0,0,00000000,0000000000000000000000000000000000000000000000000000000000000000,0000000000000000000000000000000000000000000000000000000000000000,"IDLE",08,0,0,0,0,0,0,0
47,47,0,0,0,0,1,0,0,00000000,0000000000000000000000000000000000000000000000000000000000000000,0000000000000000000000000000000000000000000000000000000000000000,"IDLE",08,0,0,0,0,0,0,1
48,48,0,0,0,0,0,1,0,00000000,0000000000000000000000000000000000000000000000000000000000000000,0000000000000000000000000000000000000000000000000000000000000000,"IDLE",08,0,0,0,0,0,0,1
49,49,0,0,0,0,0,0,0,00000000,0000000000000000000000000000000000000000000000000000000000000000,0000000000000000000000000000000000000000000000000000000000000000,"IDLE",08,0,0,0,0,0,0,0
50,50,0,0,0,0,0,0,0,00000000,0000000000000000000000000000000000000000000000000000000000000000,0000000000000000000000000000000000000000000000000000000000000000,"IDLE",08,0,0,0,0,0,0,0
51,51,0,0,0,0,0,0,0,00000000,0000000000000000000000000000000000000000000000000000000000000000,0000000000000000000000000000000000000000000000000000000000000000,"IDLE",08,0,0,0,0,0,0,0
52,52,0,0,0,0,0,0,0,00000000,0000000000000000000000000000000000000000000000000000000000000000,0000000000000000000000000000000000000000000000000000000000000000,"IDLE",08,0,0,0,0,0,0,0
53,53,0,0,0,0,0,0,0,00000000,0000000000000000000000000000000000000000000000000000000000000000,0000000000000000000000000000000000000000000000000000000000000000,"IDLE",08,0,0,0,0,0,0,0
54,54,0,0,0,0,0,0,0,00000000,0000000000000000000000000000000000000000000000000000000000000000,0000000000000000000000000000000000000000000000000000000000000000,"IDLE",08,0,0,0,0,0,0,0
55,55,0,0,0,0,0,0,0,00000000,0000000000000000000000000000000000000000000000000000000000000000,0000000000000000000000000000000000000000000000000000000000000000,"IDLE",08,0,0,0,0,0,0,1
56,56,0,0,0,0,0,0,0,00000000,0000000000000000000000000000000000000000000000000000000000000000,0000000000000000000000000000000000000000000000000000000000000000,"IDLE",08,0,0,0,0,0,0,0
57,57,0,0,0,0,0,0,0,00000000,0000000000000000000000000000000000000000000000000000000000000000,0000000000000000000000000000000000000000000000000000000000000000,"IDLE",08,0,0,0,0,0,0,0
58,58,0,0,0,0,0,0,0,00000000,0000000000000000000000000000000000000000000000000000000000000000,0000000000000000000000000000000000000000000000000000000000000000,"IDLE",08,0,0,0,0,0,0,0
59,59,0,0,0,0,0,0,0,00000000,0000000000000000000000000000000000000000000000000000000000000000,0000000000000000000000000000000000000000000000000000000000000000,"IDLE",08,0,0,0,0,0,0,0
60,60,0,0,0,0,1,0,0,00000000,0000000000000000000000000000000000000000000000000000000000000000,0000000000000000000000000000000000000000000000000000000000000000,"IDLE",08,0,0,0,0,0,0,1
61,61,0,0,0,0,0,1,0,00000000,0000000000000000000000000000000000000000000000000000000000000000,0000000000000000000000000000000000000000000000000000000000000000,"IDLE",08,0,0,0,0,0,0,1
62,62,0,0,0,0,0,0,0,00000000,0000000000000000000000000000000000000000000000000000000000000000,0000000000000000000000000000000000000000000000000000000000000000,"IDLE",08,0,0,0,0,0,0,0
63,63,0,0,0,0,1,0,0,00000000,0000000000000000000000000000000000000000000000000000000000000000,0000000000000000000000000000000000000000000000000000000000000000,"IDLE",08,0,0,0,0,0,0,1
64,64,0,0,0,0,0,1,0,00000000,0000000000000000000000000000000000000000000000000000000000000000,0000000000000000000000000000000000000000000000000000000000000000,"IDLE",08,0,0,0,0,0,0,1
65,65,0,0,0,0,0,0,0,00000000,0000000000000000000000000000000000000000000000000000000000000000,0000000000000000000000000000000000000000000000000000000000000000,"IDLE",08,0,0,0,0,0,0,0
66,66,0,0,0,0,1,0,0,00000000,0000000000000000000000000000000000000000000000000000000000000000,0000000000000000000000000000000000000000000000000000000000000000,"IDLE",08,0,0,0,0,0,0,1
67,67,0,0,0,0,0,1,0,00000000,0000000000000000000000000000000000000000000000000000000000000000,0000000000000000000000000000000000000000000000000000000000000000,"IDLE",08,0,0,0,0,0,0,1
68,68,0,0,0,0,0,0,0,00000000,0000000000000000000000000000000000000000000000000000000000000000,0000000000000000000000000000000000000000000000000000000000000000,"IDLE",08,0,0,0,0,0,0,0
69,69,0,0,0,0,1,0,0,00000000,0000000000000000000000000000000000000000000000000000000000000000,0000000000000000000000000000000000000000000000000000000000000000,"IDLE",08,0,0,0,0,0,0,1
70,70,0,0,0,0,0,1,0,00000000,0000000000000000000000000000000000000000000000000000000000000000,0000000000000000000000000000000000000000000000000000000000000000,"IDLE",08,0,0,0,0,0,0,1
71,71,0,0,0,0,0,0,0,00000000,0000000000000000000000000000000000000000000000000000000000000000,0000000000000000000000000000000000000000000000000000000000000000,"IDLE",08,0,0,0,0,0,0,0
72,72,0,0,0,0,0,0,0,00000000,0000000000000000000000000000000000000000000000000000000000000000,0000000000000000000000000000000000000000000000000000000000000000,"IDLE",08,0,0,0,0,0,0,1
73,73,0,0,0,0,0,0,0,00000000,0000000000000000000000000000000000000000000000000000000000000000,0000000000000000000000000000000000000000000000000000000000000000,"IDLE",08,0,0,0,0,0,0,0
74,74,0,0,0,0,0,0,0,00000000,0000000000000000000000000000000000000000000000000000000000000000,0000000000000000000000000000000000000000000000000000000000000000,"IDLE",08,0,0,0,0,0,0,0
75,75,0,0,0,0,0,0,0,00000000,0000000000000000000000000000000000000000000000000000000000000000,0000000000000000000000000000000000000000000000000000000000000000,"IDLE",08,0,0,0,0,0,0,0
76,76,0,0,0,0,0,0,0,00000000,0000000000000000000000000000000000000000000000000000000000000000,0000000000000000000000000000000000000000000000000000000000000000,"IDLE",08,0,0,0,0,0,0,0
77,77,0,0,0,0,0,0,0,00000000,0000000000000000000000000000000000000000000000000000000000000000,0000000000000000000000000000000000000000000000000000000000000000,"IDLE",08,0,0,0,0,0,0,1
78,78,0,0,0,0,0,0,0,00000000,0000000000000000000000000000000000000000000000000000000000000000,0000000000000000000000000000000000000000000000000000000000000000,"IDLE",08,0,0,0,0,0,0,0
79,79,0,0,0,0,0,0,0,00000000,0000000000000000000000000000000000000000000000000000000000000000,0000000000000000000000000000000000000000000000000000000000000000,"IDLE",08,0,0,0,0,0,0,0
80,80,0,0,0,0,0,0,0,00000000,0000000000000000000000000000000000000000000000000000000000000000,0000000000000000000000000000000000000000000000000000000000000000,"IDLE",08,0,0,0,0,0,0,1
81,81,0,0,0,0,0,0,0,00000000,0000000000000000000000000000000000000000000000000000000000000000,0000000000000000000000000000000000000000000000000000000000000000,"IDLE",08,0,0,0,0,0,0,0
82,82,0,0,0,0,0,0,0,00000000,0000000000000000000000000000000000000000000000000000000000000000,0000000000000000000000000000000000000000000000000000000000000000,"IDLE",08,0,0,0,0,0,0,0
83,83,0,0,0,0,0,0,0,00000000,0000000000000000000000000000000000000000000000000000000000000000,0000000000000000000000000000000000000000000000000000000000000000,"IDLE",08,0,0,0,0,0,0,0
84,84,0,0,0,0,0,0,0,00000000,0000000000000000000000000000000000000000000000000000000000000000,0000000000000000000000000000000000000000000000000000000000000000,"IDLE",08,0,0,0,0,0,0,0
85,85,0,0,0,0,0,0,0,00000000,0000000000000000000000000000000000000000000000000000000000000000,0000000000000000000000000000000000000000000000000000000000000000,"IDLE",08,0,0,0,0,0,0,0
86,86,0,0,0,0,0,0,0,00000000,0000000000000000000000000000000000000000000000000000000000000000,0000000000000000000000000000000000000000000000000000000000000000,"IDLE",08,0,0,0,0,0,0,1
87,87,0,0,0,0,0,0,0,00000000,0000000000000000000000000000000000000000000000000000000000000000,0000000000000000000000000000000000000000000000000000000000000000,"IDLE",08,0,0,0,0,0,0,0
88,88,0,0,0,0,0,0,0,00000000,0000000000000000000000000000000000000000000000000000000000000000,0000000000000000000000000000000000000000000000000000000000000000,"IDLE",08,0,0,0,0,0,0,0
89,89,0,0,0,0,0,0,0,00000000,0000000000000000000000000000000000000000000000000000000000000000,0000000000000000000000000000000000000000000000000000000000000000,"IDLE",08,0,0,0,0,0,0,0
90,90,0,0,0,0,0,0,0,00000000,0000000000000000000000000000000000000000000000000000000000000000,0000000000000000000000000000000000000000000000000000000000000000,"IDLE",08,0,0,0,0,0,0,0
91,91,0,0,0,0,0,0,0,00000000,0000000000000000000000000000000000000000000000000000000000000000,0000000000000000000000000000000000000000000000000000000000000000,"IDLE",08,0,0,0,0,0,0,0
92,92,0,0,0,0,0,0,0,00000000,0000000000000000000000000000000000000000000000000000000000000000,0000000000000000000000000000000000000000000000000000000000000000,"IDLE",08,0,0,0,0,0,0,1
93,93,0,0,0,0,0,0,0,00000000,0000000000000000000000000000000000000000000000000000000000000000,0000000000000000000000000000000000000000000000000000000000000000,"IDLE",08,0,0,0,0,0,0,0
94,94,0,0,0,0,0,0,0,00000000,0000000000000000000000000000000000000000000000000000000000000000,0000000000000000000000000000000000000000000000000000000000000000,"IDLE",08,0,0,0,0,0,0,0
95,95,0,0,0,0,0,0,0,00000000,0000000000000000000000000000000000000000000000000000000000000000,0000000000000000000000000000000000000000000000000000000000000000,"IDLE",08,0,0,0,0,0,0,0
96,96,0,0,0,0,0,0,0,00000000,0000000000000000000000000000000000000000000000000000000000000000,0000000000000000000000000000000000000000000000000000000000000000,"IDLE",08,0,0,0,0,0,0,0
97,97,0,0,0,0,0,0,0,00000000,0000000000000000000000000000000000000000000000000000000000000000,0000000000000000000000000000000000000000000000000000000000000000,"IDLE",08,0,0,0,0,0,0,0
98,98,0,0,0,0,0,0,0,00000000,0000000000000000000000000000000000000000000000000000000000000000,0000000000000000000000000000000000000000000000000000000000000000,"IDLE",08,0,0,0,0,0,0,0
99,99,0,0,0,0,0,0,0,00000000,0000000000000000000000000000000000000000000000000000000000000000,0000000000000000000000000000000000000000000000000000000000000000,"IDLE",08,0,0,0,0,0,0,0
100,100,0,0,0,0,0,0,0,00000000,0000000000000000000000000000000000000000000000000000000000000000,0000000000000000000000000000000000000000000000000000000000000000,"IDLE",08,0,0,0,0,0,0,0
101,101,0,0,0,0,0,0,0,00000000,0000000000000000000000000000000000000000000000000000000000000000,0000000000000000000000000000000000000000000000000000000000000000,"IDLE",08,0,0,0,0,0,0,1
